!Agilent Technologies,N5242A,MY47420273,A.09.90.17
!Agilent N5242A: A.09.90.17
!Date: Wednesday, November 29, 2023 13:39:20
!Correction: S11(Full 2 Port(1,4)) 
!S41(Full 2 Port(1,4)) 
!S14(Full 2 Port(1,4)) 
!S44(Full 2 Port(1,4)) 
!S2P File: Measurements: S11, S41, S14, S44:
# Hz S  RI   R 50
2756000000 -0.11577743 -0.97928876 -0.00012248731 3.1082833e-005 -0.00012136775 3.9242175e-005 -0.080757789 -0.98565602
2756062500 -0.1160695 -0.97922504 -0.00011089083 2.1892156e-005 -0.00011710343 1.1008911e-005 -0.081033133 -0.9856388
2756125000 -0.11626888 -0.97911334 -0.00011501476 1.533547e-005 -0.00012251525 1.616161e-005 -0.081411168 -0.98558456
2756187500 -0.11671058 -0.97915065 -0.00012673624 2.2321969e-005 -0.00012734861 1.2788837e-005 -0.081662729 -0.98552144
2756250000 -0.11704098 -0.97912663 -0.00011935931 3.4524259e-005 -0.00012667435 1.9566101e-005 -0.082003221 -0.98546159
2756312500 -0.11731648 -0.97905672 -0.00012062052 3.0817027e-005 -0.00012442449 1.1642146e-005 -0.082265817 -0.98548585
2756375000 -0.11768558 -0.97894132 -0.00012065877 1.5420703e-005 -0.00011834698 2.0534335e-005 -0.082638502 -0.98542666
2756437500 -0.11792233 -0.97889215 -0.00012345107 1.8120945e-005 -0.00011593043 2.8642182e-005 -0.082873084 -0.98543102
2756500000 -0.11823786 -0.9788748 -0.0001205536 1.258766e-005 -0.00011531148 2.9903949e-005 -0.083168678 -0.98539293
2756562500 -0.11859038 -0.9788605 -0.000122529 1.3107717e-005 -0.00011912278 1.9433372e-005 -0.083460517 -0.98533177
2756625000 -0.11894933 -0.97884679 -0.00011550147 1.9660733e-005 -0.00012970084 2.4416631e-005 -0.08376576 -0.98530048
2756687500 -0.1192142 -0.97873712 -0.00011595547 1.7373342e-005 -0.00011529744 3.0968818e-005 -0.084158055 -0.98530567
2756750000 -0.11956305 -0.97870034 -0.00012443577 2.3611408e-005 -0.00012790249 1.0687464e-005 -0.084426917 -0.98522401
2756812500 -0.11982493 -0.97863269 -0.00012900347 1.3762862e-005 -0.00012652874 2.8035161e-005 -0.084726311 -0.98514944
2756875000 -0.12018826 -0.97865093 -0.00013501749 3.5315948e-005 -0.00012953122 2.5890968e-005 -0.085088536 -0.98513383
2756937500 -0.12052834 -0.97859502 -0.0001266991 2.0910233e-005 -0.00011983413 1.5174161e-005 -0.085360914 -0.98505044
2757000000 -0.12086145 -0.9785468 -0.00012608661 2.6593712e-005 -0.0001262991 1.9331885e-005 -0.085650973 -0.98508507
2757062500 -0.12121689 -0.97846693 -0.00012750644 1.7505725e-005 -0.00012219885 2.6575479e-005 -0.086000867 -0.98498976
2757125000 -0.12145533 -0.97851628 -0.00013373148 2.2429309e-005 -0.0001240859 2.2288074e-005 -0.08625856 -0.98502457
2757187500 -0.12188184 -0.97841996 -0.00012680609 2.0153029e-005 -0.00013012752 1.966472e-005 -0.08657565 -0.9849571
2757250000 -0.12211317 -0.97830713 -0.00011586554 1.8441515e-005 -0.00012841819 2.236129e-005 -0.086843446 -0.98491526
2757312500 -0.12246332 -0.97830212 -0.00013154763 2.3676435e-005 -0.0001308909 7.1792811e-006 -0.087185532 -0.98488879
2757375000 -0.12284721 -0.97825664 -0.00014048956 3.1027321e-005 -0.00012330897 2.4700699e-005 -0.087454997 -0.98489171
2757437500 -0.12317835 -0.9782306 -0.0001271027 2.8956831e-005 -0.00011956355 2.1051643e-005 -0.087825812 -0.98479301
2757500000 -0.12347648 -0.97815329 -0.00012519534 2.902047e-005 -0.00013947209 2.6661735e-005 -0.088131011 -0.98476046
2757562500 -0.1239171 -0.97820073 -0.00012010959 1.4665785e-005 -0.00012505428 2.5027251e-005 -0.088401124 -0.98468953
2757625000 -0.12415668 -0.97810084 -0.00013660241 2.9381237e-005 -0.00013627968 2.7276705e-005 -0.088711493 -0.98467338
2757687500 -0.12449091 -0.97801673 -0.00012192614 2.8958735e-005 -0.00013847472 2.8097858e-005 -0.08908131 -0.98465168
2757750000 -0.12480807 -0.97801965 -0.00013031633 2.5699737e-005 -0.00013469026 3.4861365e-005 -0.089372024 -0.9846524
2757812500 -0.12508968 -0.97799784 -0.00012827784 3.2637516e-005 -0.00013273155 8.4452322e-006 -0.089639843 -0.98457038
2757875000 -0.12543648 -0.97791785 -0.00013509503 3.260883e-005 -0.00012049304 3.6287267e-005 -0.089992054 -0.9845261
2757937500 -0.12577397 -0.97781688 -0.00014257456 2.7194503e-005 -0.00013067188 2.100229e-005 -0.090255022 -0.98451054
2758000000 -0.12610832 -0.97785336 -0.0001423389 2.2017321e-005 -0.00013119368 1.4179238e-005 -0.090581864 -0.98450261
2758062500 -0.12641849 -0.97770232 -0.00011529961 2.0047764e-005 -0.00013358073 2.2523558e-005 -0.090912722 -0.98449314
2758125000 -0.1267547 -0.97770244 -0.00013435895 2.6859945e-005 -0.00012342761 2.3942976e-005 -0.091225863 -0.9844076
2758187500 -0.12712617 -0.97770166 -0.00013684976 2.7597367e-005 -0.00013472165 2.641603e-005 -0.09155973 -0.98436576
2758250000 -0.12741172 -0.97769266 -0.00013437758 3.8078149e-005 -0.00013047142 2.2159207e-005 -0.091857091 -0.98431504
2758312500 -0.12774347 -0.97766966 -0.00013545134 1.6406399e-005 -0.0001296339 1.5998847e-005 -0.09221676 -0.98427993
2758375000 -0.12810168 -0.97753894 -0.00013307511 9.5287805e-006 -0.00013123095 1.7418388e-005 -0.092536271 -0.98423672
2758437500 -0.12845173 -0.97742534 -0.00013975054 2.7519869e-005 -0.00013412781 2.5262536e-005 -0.09282545 -0.98420066
2758500000 -0.12872887 -0.97746557 -0.00013409783 1.9668742e-005 -0.00013822125 2.7377475e-005 -0.093103401 -0.9841398
2758562500 -0.1291324 -0.97734958 -0.00012738626 3.613115e-005 -0.00013197734 2.7684295e-005 -0.093444757 -0.98406905
2758625000 -0.12938173 -0.97731256 -0.0001429792 1.9590785e-005 -0.00014990248 2.5195033e-005 -0.093787327 -0.98410118
2758687500 -0.12977359 -0.97725153 -0.00013639461 2.3576322e-005 -0.00013638314 3.3942903e-005 -0.094037049 -0.98405325
2758750000 -0.130071 -0.97723609 -0.00014704149 2.3891536e-005 -0.00013943137 2.8313387e-005 -0.094397865 -0.98404068
2758812500 -0.13038462 -0.97724748 -0.00015265829 2.3723989e-005 -0.00013589967 1.8256025e-005 -0.094671756 -0.98396438
2758875000 -0.13069771 -0.97713459 -0.00013863792 4.2510575e-005 -0.00013858378 2.3948123e-005 -0.095033251 -0.98392403
2758937500 -0.13099892 -0.97710401 -0.00013422252 2.1801592e-005 -0.00013650315 2.8673774e-005 -0.09532246 -0.98389685
2759000000 -0.13146926 -0.97700363 -0.00014360291 2.6599619e-005 -0.00013766276 2.1605694e-005 -0.095649458 -0.98380333
2759062500 -0.13173757 -0.97692376 -0.00013430348 4.278608e-005 -0.0001458636 4.155108e-005 -0.095994629 -0.98375916
2759125000 -0.13205749 -0.97692102 -0.00013560307 3.0525134e-005 -0.00012915001 3.6662175e-005 -0.096320853 -0.98374575
2759187500 -0.13242655 -0.97692001 -0.00013024993 2.8027915e-005 -0.00013996896 3.4382316e-005 -0.096662723 -0.983706
2759250000 -0.1327047 -0.97679847 -0.00014321312 2.7404305e-005 -0.00012401774 1.8254555e-005 -0.096987918 -0.98362595
2759312500 -0.13306777 -0.97681409 -0.00013372292 3.3015076e-005 -0.00013889236 3.0111472e-005 -0.097283706 -0.98362637
2759375000 -0.13339427 -0.97665906 -0.00014125221 3.4713536e-005 -0.00015109561 3.7265505e-005 -0.097588956 -0.98361051
2759437500 -0.13374923 -0.97665125 -0.00013784596 2.9259756e-005 -0.0001427363 6.7382061e-006 -0.097935341 -0.98351848
2759500000 -0.1341399 -0.97666842 -0.00013861824 2.9408769e-005 -0.00013159782 1.5963456e-005 -0.098299816 -0.98345369
2759562500 -0.13442717 -0.97660035 -0.00013393445 2.4172805e-005 -0.00013643541 2.8663148e-005 -0.098573349 -0.98345202
2759625000 -0.13469328 -0.9764666 -0.000146611 3.82217e-005 -0.00014853667 2.0227515e-005 -0.098875433 -0.98345518
2759687500 -0.13505846 -0.97635537 -0.0001338795 2.4140725e-005 -0.00014616892 1.9721198e-005 -0.099219292 -0.98342341
2759750000 -0.13540272 -0.97634274 -0.00013651297 1.9933574e-005 -0.00015242056 2.6876623e-005 -0.099643551 -0.98330534
2759812500 -0.13573249 -0.97630906 -0.00013715327 3.134329e-005 -0.00014577198 2.0225203e-005 -0.099894285 -0.98325664
2759875000 -0.13607241 -0.97625232 -0.00014343458 3.6702389e-005 -0.0001524985 4.2310654e-005 -0.10020285 -0.98323041
2759937500 -0.13640189 -0.97619325 -0.00013509647 2.2074437e-005 -0.00013265575 2.5090259e-005 -0.10048306 -0.98320699
2760000000 -0.13677624 -0.97609788 -0.00014563558 2.4926856e-005 -0.00014214168 3.9734758e-005 -0.10083905 -0.98310417
2760062500 -0.13705824 -0.97602397 -0.00014273397 2.0764635e-005 -0.00015561267 2.9220841e-005 -0.10112734 -0.98310757
2760125000 -0.13738129 -0.97608703 -0.00014666277 3.1466025e-005 -0.00013203316 3.1721935e-005 -0.10150848 -0.98302937
2760187500 -0.13775674 -0.97589427 -0.000139797 2.3249042e-005 -0.00013965067 1.7768081e-005 -0.10183381 -0.98297971
2760250000 -0.13800403 -0.9758935 -0.00015185849 3.000596e-005 -0.00014483205 3.1265809e-005 -0.10216139 -0.98296034
2760312500 -0.13843589 -0.97586048 -0.00014447956 3.6241476e-005 -0.00014706577 4.2729956e-005 -0.10248166 -0.98292965
2760375000 -0.13875458 -0.97569507 -0.00013422109 1.9120929e-005 -0.0001395608 3.7163682e-005 -0.10285286 -0.98286909
2760437500 -0.1390326 -0.97573608 -0.00014620739 3.9095707e-005 -0.00014221171 2.4922427e-005 -0.10315885 -0.98279285
2760500000 -0.1393505 -0.97563571 -0.00014990426 3.1889362e-005 -0.00015458489 3.6324185e-005 -0.10346963 -0.98281616
2760562500 -0.13963754 -0.97557622 -0.00016114926 3.4121844e-005 -0.00014978854 3.1788306e-005 -0.10380717 -0.98271626
2760625000 -0.1400563 -0.97555733 -0.00014860622 3.1789143e-005 -0.00014211923 2.3059598e-005 -0.10410333 -0.9826898
2760687500 -0.140432 -0.97549844 -0.00013814385 3.4185079e-005 -0.0001422545 2.4802075e-005 -0.10446766 -0.98266929
2760750000 -0.14070548 -0.97536457 -0.0001496772 4.4141194e-005 -0.00016105534 2.9657725e-005 -0.10477355 -0.98260438
2760812500 -0.14101191 -0.97530872 -0.00015469029 3.7282414e-005 -0.00014207908 2.8445935e-005 -0.10515556 -0.98255694
2760875000 -0.14138733 -0.97522485 -0.0001438176 3.3346332e-005 -0.00014308983 3.046143e-005 -0.10543995 -0.98252517
2760937500 -0.14172249 -0.97512877 -0.00015161977 3.6746744e-005 -0.00014426556 2.4455263e-005 -0.10570133 -0.98244375
2761000000 -0.14200905 -0.97508842 -0.00016252727 2.7404078e-005 -0.0001628208 2.9151204e-005 -0.10605782 -0.98242646
2761062500 -0.14237136 -0.97506249 -0.00014538101 2.8263023e-005 -0.00015021175 1.8925324e-005 -0.10647094 -0.98236567
2761125000 -0.14267497 -0.97500789 -0.00016039651 3.9245031e-005 -0.00015481125 2.3750852e-005 -0.10676065 -0.98235101
2761187500 -0.14309627 -0.97487038 -0.00016265715 3.42165e-005 -0.00015366168 3.6382706e-005 -0.10711215 -0.98234123
2761250000 -0.14344807 -0.97488987 -0.00015634339 4.1848754e-005 -0.00015908368 3.4276931e-005 -0.10743943 -0.98227197
2761312500 -0.14383152 -0.97489703 -0.00014633204 3.0358662e-005 -0.00015725597 3.4751785e-005 -0.10782116 -0.98223346
2761375000 -0.14414525 -0.97477388 -0.00015592315 3.4664521e-005 -0.00014700185 2.7966002e-005 -0.1081053 -0.98222679
2761437500 -0.14446951 -0.97474694 -0.00015903921 4.0352199e-005 -0.00016011484 4.181363e-005 -0.10845329 -0.98210686
2761500000 -0.14483993 -0.97468054 -0.00014970682 4.055323e-005 -0.0001403405 3.5428759e-005 -0.10876563 -0.98205668
2761562500 -0.14511068 -0.97454488 -0.00016159643 4.3749977e-005 -0.00015690831 3.5785404e-005 -0.10905766 -0.98209649
2761625000 -0.14551924 -0.97454834 -0.0001596714 4.1897842e-005 -0.00015083872 3.7001104e-005 -0.10941073 -0.98200899
2761687500 -0.14577845 -0.97445101 -0.00017150043 3.4215624e-005 -0.00015242212 2.9579429e-005 -0.10978064 -0.98195994
2761750000 -0.1462093 -0.97442657 -0.00016230327 3.5199781e-005 -0.00016172932 3.4258595e-005 -0.1101317 -0.98192441
2761812500 -0.14647284 -0.97435975 -0.00015797674 3.7917824e-005 -0.00017199041 3.7820628e-005 -0.11044241 -0.98191833
2761875000 -0.14683358 -0.97434747 -0.00016161951 3.745603e-005 -0.00017106741 4.5853067e-005 -0.11077823 -0.98182935
2761937500 -0.14724877 -0.9742732 -0.00015495146 3.3962409e-005 -0.00016045196 2.9497911e-005 -0.11112382 -0.98178446
2762000000 -0.14760531 -0.97425145 -0.0001473992 2.871361e-005 -0.00017046249 2.6641503e-005 -0.11146966 -0.98173362
2762062500 -0.1478741 -0.97418481 -0.00016232811 2.3643743e-005 -0.0001699056 3.9823604e-005 -0.11181501 -0.98167747
2762125000 -0.14825377 -0.97414505 -0.00015562083 3.2153919e-005 -0.00016456899 3.1978467e-005 -0.11211038 -0.98163241
2762187500 -0.14856128 -0.97400886 -0.00015834364 3.5858862e-005 -0.00015930147 3.935273e-005 -0.11241785 -0.98156244
2762250000 -0.14894158 -0.9739747 -0.00016794889 2.9711244e-005 -0.00015170587 4.1310304e-005 -0.11279721 -0.98159212
2762312500 -0.14931743 -0.97397512 -0.00017175524 3.4774832e-005 -0.00016753119 3.5178469e-005 -0.11312252 -0.98146081
2762375000 -0.14963435 -0.97385883 -0.00017338493 4.122495e-005 -0.00017382347 5.6405384e-005 -0.11349805 -0.98142016
2762437500 -0.14997067 -0.9738043 -0.00017551365 3.9726867e-005 -0.00015693289 5.0659411e-005 -0.11384384 -0.98144031
2762500000 -0.15036204 -0.97375584 -0.00015935522 2.8504759e-005 -0.00016806548 2.7333534e-005 -0.11416338 -0.9813745
2762562500 -0.15073435 -0.9737168 -0.00016760909 4.0113038e-005 -0.00016122741 2.8611179e-005 -0.1144409 -0.98128384
2762625000 -0.15111274 -0.97359121 -0.00016743429 3.1109768e-005 -0.00016587599 4.0294148e-005 -0.11479803 -0.98125595
2762687500 -0.15140477 -0.97350711 -0.00017357647 4.560707e-005 -0.00016663018 3.6593276e-005 -0.11518396 -0.98119199
2762750000 -0.15181451 -0.97348154 -0.00016074094 3.9613315e-005 -0.00016120169 3.5778321e-005 -0.1154975 -0.98115379
2762812500 -0.15210089 -0.97345644 -0.00016227082 4.1915049e-005 -0.00016684334 4.2153406e-005 -0.11581647 -0.98109263
2762875000 -0.15248239 -0.97336769 -0.00016527028 3.3568154e-005 -0.00017659676 3.0717903e-005 -0.11617547 -0.98099929
2762937500 -0.15277016 -0.97330695 -0.00016341226 4.5233002e-005 -0.00016959393 2.3963299e-005 -0.11652541 -0.9809804
2763000000 -0.15318608 -0.97325766 -0.00017250699 3.5270532e-005 -0.00017357965 4.7349746e-005 -0.11688611 -0.98091334
2763062500 -0.15362234 -0.97317564 -0.00016959092 3.4784931e-005 -0.00016959077 4.1279567e-005 -0.11716631 -0.98091125
2763125000 -0.15394121 -0.97308338 -0.00016640696 2.8983619e-005 -0.00017110902 4.4131004e-005 -0.11752629 -0.98084038
2763187500 -0.15421556 -0.97300345 -0.00017470437 3.2369375e-005 -0.00018076881 3.3119974e-005 -0.1178437 -0.98076886
2763250000 -0.15463883 -0.97288358 -0.00016157485 4.7053516e-005 -0.00018565038 3.9024624e-005 -0.11823656 -0.98075855
2763312500 -0.15493435 -0.97295785 -0.00016917806 3.7264319e-005 -0.00017837519 4.5509969e-005 -0.118541 -0.98064107
2763375000 -0.15539891 -0.97284353 -0.00016524229 4.1554435e-005 -0.00017511667 3.1858195e-005 -0.1188867 -0.98059666
2763437500 -0.15561914 -0.97271943 -0.00017558967 4.7505135e-005 -0.00018055903 3.8313123e-005 -0.11919342 -0.98060191
2763500000 -0.15603673 -0.97274786 -0.00017542957 3.8902199e-005 -0.00017386823 4.1335472e-005 -0.11959974 -0.9805333
2763562500 -0.15641941 -0.9726218 -0.00016951858 5.6520825e-005 -0.0001841636 4.8733571e-005 -0.11995378 -0.98052388
2763625000 -0.15672855 -0.97257304 -0.00017426097 3.4017015e-005 -0.00018092172 5.0385952e-005 -0.12031481 -0.98043382
2763687500 -0.15712954 -0.9724111 -0.00017628897 4.5518736e-005 -0.00018510346 4.074712e-005 -0.12068082 -0.98038983
2763750000 -0.15748553 -0.97244108 -0.00017204951 4.8200371e-005 -0.00017607801 3.4216286e-005 -0.12095888 -0.9803443
2763812500 -0.1577616 -0.97241336 -0.00016763085 4.3641649e-005 -0.00017624683 5.4804292e-005 -0.12132691 -0.9802748
2763875000 -0.15818846 -0.97234869 -0.00018248796 4.6494675e-005 -0.00017061141 3.883227e-005 -0.12165115 -0.9802109
2763937500 -0.15855105 -0.97221708 -0.00017663452 3.6207046e-005 -0.00018668815 4.8133435e-005 -0.12199029 -0.98017114
2764000000 -0.15889175 -0.9721579 -0.00018589798 3.6321344e-005 -0.00017189818 3.2764852e-005 -0.12249651 -0.98012078
2764062500 -0.15925863 -0.97203624 -0.00018546182 4.169629e-005 -0.0001807988 4.6617155e-005 -0.12272426 -0.98007238
2764125000 -0.15952893 -0.97199607 -0.00018155522 4.0323161e-005 -0.00019392444 3.6170302e-005 -0.12307221 -0.98006403
2764187500 -0.15994243 -0.97198421 -0.00017358601 3.7655729e-005 -0.0001882776 3.1540534e-005 -0.12346911 -0.98002857
2764250000 -0.16034113 -0.97193807 -0.00017292323 4.1527506e-005 -0.00018905028 4.7520181e-005 -0.12374379 -0.97990924
2764312500 -0.16056998 -0.97180921 -0.00018575044 3.749222e-005 -0.00017819201 4.665857e-005 -0.12412608 -0.97990173
2764375000 -0.16097713 -0.97172821 -0.00018123287 4.70052e-005 -0.0001838999 3.289427e-005 -0.12456657 -0.97979301
2764437500 -0.16133881 -0.97166634 -0.00017503191 4.8916376e-005 -0.00018285756 4.5488603e-005 -0.12490847 -0.97971785
2764500000 -0.16170362 -0.97163522 -0.00016133339 3.6324789e-005 -0.00017860203 4.831878e-005 -0.12521645 -0.97974342
2764562500 -0.16203994 -0.97160012 -0.00019439845 6.0614006e-005 -0.00019516835 3.3869957e-005 -0.12560387 -0.97966409
2764625000 -0.16240266 -0.97150505 -0.00018905675 3.2654498e-005 -0.00018479106 4.3875272e-005 -0.12592825 -0.97964358
2764687500 -0.16277757 -0.97144192 -0.00018217941 5.0220911e-005 -0.00018104169 4.7710131e-005 -0.1263272 -0.9795723
2764750000 -0.16311884 -0.97139251 -0.00019637136 4.869073e-005 -0.00018907296 3.5696314e-005 -0.12661003 -0.97947407
2764812500 -0.16346943 -0.97128117 -0.00018561898 4.2859876e-005 -0.00019042971 4.2228086e-005 -0.12696587 -0.97949618
2764875000 -0.16380617 -0.97120321 -0.00020685862 5.0107396e-005 -0.00017731976 3.9412182e-005 -0.12735301 -0.97943527
2764937500 -0.16420044 -0.97112197 -0.00018945504 4.6428795e-005 -0.00018008675 5.8828169e-005 -0.12774123 -0.97936606
2765000000 -0.16463383 -0.97114551 -0.00019474259 4.8900398e-005 -0.00018655826 5.1882464e-005 -0.12805265 -0.97928655
2765062500 -0.16490173 -0.97105938 -0.00018663834 5.1199204e-005 -0.00019097744 5.2187741e-005 -0.12843682 -0.97917134
2765125000 -0.16533443 -0.97101635 -0.00018037767 4.6851812e-005 -0.00019280562 4.1629246e-005 -0.1287232 -0.97919452
2765187500 -0.16574213 -0.97091258 -0.00018531519 4.7039215e-005 -0.00019560249 2.7713222e-005 -0.1290814 -0.97906709
2765250000 -0.16602403 -0.9708578 -0.0001917729 4.3879707e-005 -0.00019275887 5.7984922e-005 -0.12944621 -0.97905695
2765312500 -0.16645139 -0.97076112 -0.00019525721 4.4797751e-005 -0.0002000582 5.1816893e-005 -0.12981561 -0.97894508
2765375000 -0.16686672 -0.97068733 -0.00019074374 4.8340982e-005 -0.00020287001 5.5082019e-005 -0.13012867 -0.97893482
2765437500 -0.16719674 -0.97062707 -0.00019144027 3.7590409e-005 -0.00019613332 5.4343058e-005 -0.13049608 -0.97888237
2765500000 -0.16751885 -0.97053033 -0.00019160502 4.7798632e-005 -0.00020320398 4.0239607e-005 -0.13084289 -0.97879422
2765562500 -0.16780141 -0.97042173 -0.00020170426 4.9815975e-005 -0.00018711257 5.4322103e-005 -0.13124257 -0.97870356
2765625000 -0.16821708 -0.97033834 -0.00020227356 5.0020481e-005 -0.00018912023 5.4797034e-005 -0.13160957 -0.9787184
2765687500 -0.16852152 -0.97029406 -0.00020442854 5.1523293e-005 -0.00020167915 5.6235451e-005 -0.13192844 -0.97864127
2765750000 -0.16890201 -0.97020143 -0.00020079159 3.7793168e-005 -0.00019667608 5.7897068e-005 -0.13234255 -0.97858554
2765812500 -0.16930386 -0.97021139 -0.00020100721 4.9559672e-005 -0.00018365755 4.3773012e-005 -0.13268068 -0.97852898
2765875000 -0.16972008 -0.97003412 -0.00020225001 5.0522329e-005 -0.00019039038 4.2021744e-005 -0.13307925 -0.97842979
2765937500 -0.17004871 -0.97004664 -0.0001993699 6.1228609e-005 -0.00020293523 4.8974489e-005 -0.13340479 -0.97842306
2766000000 -0.17047675 -0.96996737 -0.00019236193 6.0223556e-005 -0.0002007571 4.257826e-005 -0.13373764 -0.97833318
2766062500 -0.17076954 -0.969877 -0.00020531869 5.0263716e-005 -0.00020703531 4.7795551e-005 -0.13411705 -0.97830158
2766125000 -0.17111613 -0.96977133 -0.00020806624 5.7317335e-005 -0.00021084034 4.5850786e-005 -0.13451135 -0.97820777
2766187500 -0.17154801 -0.96970946 -0.00020253629 4.6204761e-005 -0.00019996891 3.7081711e-005 -0.13484547 -0.97809029
