!Agilent Technologies,N5242A,MY47420273,A.09.90.17
!Agilent N5242A: A.09.90.17
!Date: Wednesday, November 29, 2023 13:27:30
!Correction: S11(Full 2 Port(1,4)) 
!S41(Full 2 Port(1,4)) 
!S14(Full 2 Port(1,4)) 
!S44(Full 2 Port(1,4)) 
!S2P File: Measurements: S11, S41, S14, S44:
# Hz S  RI   R 50
2756000000 -0.10861475 -0.98034537 5.4678162e-006 3.462088e-006 6.7419805e-006 5.2746777e-006 -0.072007522 -0.98634791
2756062500 -0.10887888 -0.98035997 9.6984729e-007 -3.3256817e-006 4.7095214e-006 5.1036109e-006 -0.072246455 -0.98628187
2756125000 -0.10909747 -0.98029214 2.5227569e-006 -6.0598836e-007 -6.1916221e-006 -5.4708407e-006 -0.072566934 -0.98619837
2756187500 -0.10945655 -0.98024046 -1.4209397e-005 -2.1134817e-006 -1.095164e-005 -3.8288056e-007 -0.072831988 -0.98615634
2756250000 -0.10973566 -0.98021084 -1.8905638e-006 8.4492103e-006 5.9639502e-009 -7.9430976e-007 -0.073219389 -0.98618007
2756312500 -0.11006691 -0.98018432 4.2711799e-006 3.3426734e-006 -6.7015156e-007 3.4378156e-006 -0.07342086 -0.98616832
2756375000 -0.11035183 -0.98010105 1.2394133e-006 -4.1192829e-006 3.8958296e-007 -5.077994e-006 -0.073728561 -0.9861241
2756437500 -0.11057661 -0.98003852 -9.2650653e-006 7.8142139e-006 -5.5961741e-006 3.3953909e-006 -0.074044466 -0.98610401
2756500000 -0.11085159 -0.97998512 -8.7443022e-006 1.2629208e-006 4.4374642e-006 -4.5281417e-006 -0.074283533 -0.98609746
2756562500 -0.11118581 -0.98005813 -5.2944379e-006 1.6347594e-005 -7.0256542e-006 -2.2479544e-006 -0.074571736 -0.98607969
2756625000 -0.11154198 -0.98001659 8.1902654e-006 4.0697935e-007 -3.9706401e-006 -7.1824502e-006 -0.07484068 -0.98600662
2756687500 -0.11184026 -0.97992843 3.3870006e-006 -1.3844109e-005 1.928902e-005 -5.6035452e-007 -0.075184107 -0.9860214
2756750000 -0.11217314 -0.9798733 9.2607615e-006 3.7392472e-006 2.9702269e-006 4.2544939e-006 -0.07545384 -0.98589945
2756812500 -0.11241682 -0.9797731 1.3620675e-006 1.5002561e-006 3.7432671e-006 8.70382e-007 -0.075772226 -0.98584944
2756875000 -0.11274861 -0.97976756 5.6713384e-007 1.1713202e-005 4.9018854e-006 7.3737533e-007 -0.076078914 -0.98581183
2756937500 -0.11308628 -0.97969508 4.2686243e-006 4.4267476e-006 8.0128248e-006 4.2197403e-006 -0.076328278 -0.98573893
2757000000 -0.11341404 -0.97968936 1.2015021e-005 4.18232e-006 -6.2100173e-007 -1.4359498e-006 -0.07661806 -0.98579633
2757062500 -0.11365797 -0.97964883 8.599842e-007 4.129532e-007 9.1185848e-006 -1.8325217e-006 -0.0769137 -0.98571134
2757125000 -0.11392669 -0.97969633 1.0000263e-005 -4.545067e-006 -3.375005e-006 -3.2718824e-006 -0.07721673 -0.98574233
2757187500 -0.11431602 -0.9795981 1.2632822e-005 1.3952031e-005 -4.3403079e-006 -4.6050232e-006 -0.077483349 -0.98570025
2757250000 -0.11452625 -0.97951591 7.5882544e-006 -2.8231318e-006 -2.2170213e-006 1.1894227e-005 -0.077710018 -0.98561585
2757312500 -0.11488096 -0.9795717 -1.3227967e-005 -2.4959131e-006 -3.1254986e-006 3.9644619e-006 -0.078066461 -0.98560619
2757375000 -0.11515933 -0.97953409 -7.7227587e-006 7.4571917e-006 -1.290757e-005 8.7657845e-006 -0.078285433 -0.98561972
2757437500 -0.1154974 -0.97953075 9.7578022e-006 -7.8868006e-006 -4.7064809e-006 9.827404e-006 -0.078671552 -0.98558801
2757500000 -0.1157952 -0.97939157 2.9476369e-006 2.4441799e-006 -7.4675636e-006 -7.0461829e-006 -0.078941211 -0.98549265
2757562500 -0.11619433 -0.97944129 4.4320182e-006 2.6120465e-006 -4.1639105e-006 -6.6506686e-006 -0.079271317 -0.9854691
2757625000 -0.11646973 -0.97937524 1.1641251e-005 -4.4717772e-006 -2.2200907e-006 1.8704168e-005 -0.079526082 -0.98541141
2757687500 -0.11674315 -0.97928393 6.4241613e-006 2.2514392e-007 3.524367e-006 -1.4508923e-005 -0.079823278 -0.98542345
2757750000 -0.1170126 -0.97927797 7.2829489e-006 4.229043e-006 2.9671653e-006 -3.4927041e-006 -0.080125026 -0.98546636
2757812500 -0.11734839 -0.97921729 2.4157785e-006 4.7885084e-007 -4.2916513e-006 -8.6927048e-006 -0.080382675 -0.98536873
2757875000 -0.1176464 -0.9792636 8.8658732e-007 -1.5480949e-006 1.999299e-006 1.3425079e-005 -0.080664366 -0.98529261
2757937500 -0.11800112 -0.9791494 -2.9044638e-006 -7.537968e-006 -2.5966021e-006 -4.1967837e-006 -0.080935456 -0.98525918
2758000000 -0.11834221 -0.97916013 -1.3010975e-006 -6.5421223e-006 5.6034619e-006 -1.1801015e-006 -0.081260361 -0.98526502
2758062500 -0.11857679 -0.9790141 5.6080048e-006 -3.2790012e-006 -4.8931101e-006 1.2800303e-005 -0.081534691 -0.98523313
2758125000 -0.11888956 -0.97898632 6.1289643e-006 -6.8534596e-006 5.4473721e-006 1.8461044e-006 -0.081848033 -0.98519486
2758187500 -0.11920547 -0.97902584 2.0370585e-006 1.4471665e-006 -1.0620246e-005 3.3901504e-006 -0.082127206 -0.98516685
2758250000 -0.11950085 -0.97894448 2.3755636e-006 1.0381018e-006 1.0743939e-005 8.8226852e-006 -0.082419507 -0.98514825
2758312500 -0.11978689 -0.978944 4.4721842e-006 -1.1596894e-005 -1.2317764e-005 1.2985622e-006 -0.082801417 -0.98505974
2758375000 -0.1201288 -0.9788357 -1.2128665e-005 5.3635035e-006 -6.9121656e-006 -5.7847892e-006 -0.083094902 -0.98504889
2758437500 -0.12049321 -0.97875947 7.0273923e-006 -1.1731785e-005 4.2867558e-007 -4.0661771e-006 -0.083374083 -0.9850105
2758500000 -0.12072081 -0.97879738 -9.0997892e-006 7.6552387e-006 -6.860671e-006 -1.5461277e-006 -0.083599195 -0.98491281
2758562500 -0.12108961 -0.97873515 -3.6563604e-006 3.5088478e-006 -3.5786036e-007 1.2129032e-005 -0.08396212 -0.98493707
2758625000 -0.12135822 -0.97867453 -2.9034968e-006 -3.0659501e-006 3.6285783e-006 -1.4806227e-006 -0.08429388 -0.98493862
2758687500 -0.12170456 -0.97859663 -8.1199569e-006 -8.4081203e-006 8.5662914e-006 7.4933121e-007 -0.08450707 -0.98490751
2758750000 -0.12196456 -0.97857404 7.3392548e-006 5.6689413e-007 1.0363421e-005 9.3847484e-006 -0.084860452 -0.98491484
2758812500 -0.12228308 -0.9785589 1.1600786e-005 -1.4811363e-006 -1.1475697e-006 -5.4014544e-007 -0.085083008 -0.98483092
2758875000 -0.12256388 -0.97849149 1.0956917e-006 3.5300409e-006 -1.0258469e-006 -6.769706e-006 -0.085413843 -0.98481101
2758937500 -0.12289733 -0.97850025 5.1214838e-006 2.1469293e-006 -1.9791864e-006 -8.9366431e-006 -0.085750431 -0.98477095
2759000000 -0.12324566 -0.9783957 -1.2186845e-006 -2.3390876e-006 8.4254725e-006 4.4181497e-006 -0.086000979 -0.98470354
2759062500 -0.12350474 -0.97833288 -4.5704251e-006 7.0115966e-006 1.2826415e-006 -6.5683721e-006 -0.086351655 -0.98468208
2759125000 -0.12379906 -0.97832036 -9.7781492e-007 1.3444684e-006 7.0051428e-006 1.8424799e-006 -0.086612798 -0.98464602
2759187500 -0.12414538 -0.97833765 -3.7589425e-006 4.2194947e-006 1.088541e-006 1.2447435e-005 -0.086950749 -0.98462248
2759250000 -0.12442701 -0.9782213 6.9398438e-006 7.6170327e-006 -1.7580942e-006 5.454594e-006 -0.087281063 -0.9845885
2759312500 -0.12474766 -0.97823167 -5.4983725e-006 3.5801568e-006 4.3211999e-006 1.2801597e-005 -0.087593205 -0.98455513
2759375000 -0.1250674 -0.97810644 -2.2685579e-006 2.7863318e-006 -6.8281925e-006 1.2114847e-005 -0.087829486 -0.98453313
2759437500 -0.12536639 -0.97803736 8.2887675e-007 1.2616224e-006 4.4088852e-006 3.496875e-006 -0.088147983 -0.98447704
2759500000 -0.12574165 -0.97808975 -4.6116597e-006 1.1063447e-005 -7.7040613e-006 -2.858525e-006 -0.088491589 -0.98441803
2759562500 -0.1260324 -0.97798634 -2.9562382e-006 -4.1192329e-006 -3.5134001e-006 -5.073749e-006 -0.088796481 -0.98443556
2759625000 -0.12631355 -0.97789395 8.721322e-006 1.3871954e-006 2.2267444e-005 1.031705e-006 -0.089101441 -0.98438168
2759687500 -0.12666103 -0.97788548 5.0146639e-007 3.6232746e-007 1.1758142e-005 -2.4828769e-006 -0.08936172 -0.98434103
2759750000 -0.12699521 -0.97783971 -1.1867268e-006 -4.5992383e-006 -1.6665946e-006 2.0285561e-006 -0.08974196 -0.98429072
2759812500 -0.12729454 -0.97773558 -9.421803e-006 7.7707728e-006 -8.7892213e-006 -1.5141579e-006 -0.089995109 -0.98419762
2759875000 -0.12759098 -0.97777569 -2.6018186e-006 3.655935e-006 6.4655887e-006 -5.1026714e-006 -0.090291575 -0.98418891
2759937500 -0.12791477 -0.97774875 -1.0726733e-006 -2.8737204e-006 2.5125823e-006 -3.8806968e-007 -0.090553492 -0.98420745
2760000000 -0.12825482 -0.97758514 2.9996545e-006 -3.6393638e-007 1.1991399e-005 -4.561432e-006 -0.090876751 -0.98407513
2760062500 -0.12854791 -0.97758836 8.5014635e-006 -1.4863923e-006 8.7227636e-006 2.9329412e-006 -0.091188774 -0.98411226
2760125000 -0.12884252 -0.97762531 -4.497394e-006 8.7015911e-007 -2.0728664e-006 -4.7101175e-006 -0.091508642 -0.98408759
2760187500 -0.12914838 -0.97752547 -3.1375587e-006 -7.3632104e-006 -7.6800252e-006 -4.2151482e-006 -0.091855861 -0.98405528
2760250000 -0.12942655 -0.97747201 1.2552907e-005 -8.4860239e-006 9.2596438e-006 -2.356494e-006 -0.092111371 -0.98398614
2760312500 -0.12984207 -0.97744411 9.7854609e-006 4.952517e-006 -9.2964674e-006 -4.3669124e-006 -0.092398182 -0.98395544
2760375000 -0.13009703 -0.97732699 -1.7162661e-006 8.1541712e-006 6.7067144e-006 9.4929437e-006 -0.092774734 -0.98393142
2760437500 -0.13037971 -0.97732657 1.0642824e-005 -8.7430053e-006 4.5621259e-006 -1.327415e-006 -0.093069725 -0.98388493
2760500000 -0.13071892 -0.97724849 -6.1060132e-006 -8.8940187e-006 6.146412e-006 -3.3684596e-006 -0.093354061 -0.98390806
2760562500 -0.13100268 -0.97721899 -2.1156211e-006 -2.1156723e-006 1.1257522e-005 -4.2013885e-006 -0.093658768 -0.98383081
2760625000 -0.13132229 -0.97715324 -1.2276513e-005 4.2558077e-006 7.4728487e-006 -7.0224514e-006 -0.093931191 -0.98377419
2760687500 -0.13166426 -0.97711605 3.1993261e-007 2.8027164e-006 -3.0399776e-006 5.1282065e-008 -0.094286293 -0.98376894
2760750000 -0.13195272 -0.97701526 -1.5827112e-006 -3.2693026e-006 1.4679733e-005 1.8733003e-006 -0.094576754 -0.98370814
2760812500 -0.13218531 -0.97698021 1.1658168e-005 2.9423675e-006 -1.9761326e-005 -1.3927492e-005 -0.094908848 -0.9836182
2760875000 -0.13260184 -0.97688252 -1.1102347e-006 5.207959e-006 8.5583561e-006 5.4876591e-006 -0.095239066 -0.98364824
2760937500 -0.13284935 -0.97677732 2.9856108e-006 -3.198586e-006 -6.7129736e-006 4.1491635e-006 -0.095455162 -0.98357809
2761000000 -0.13314846 -0.97671282 3.5949704e-006 6.2763152e-006 -4.7178009e-006 -3.2529924e-006 -0.095787302 -0.98354125
2761062500 -0.13349584 -0.97670996 -5.5704081e-006 -1.388524e-006 -5.0274134e-006 -1.2168121e-005 -0.096140407 -0.98349595
2761125000 -0.13380285 -0.97665745 1.6649012e-005 -2.119195e-006 -8.1861992e-007 -2.1066571e-006 -0.096470736 -0.98346883
2761187500 -0.13420705 -0.97652489 -3.1323484e-006 -9.6535778e-006 3.0423832e-006 4.7230683e-006 -0.096757218 -0.98348129
2761250000 -0.13452373 -0.97655922 -1.1251661e-006 -1.3708124e-006 1.7340493e-005 -6.4461665e-006 -0.097115643 -0.98342258
2761312500 -0.1348394 -0.97650623 3.3533956e-006 -8.9164168e-006 6.0818238e-006 1.1475709e-008 -0.097436033 -0.98340869
2761375000 -0.13514578 -0.97650337 3.5861219e-006 8.9625263e-007 3.782369e-006 5.4473899e-006 -0.097703017 -0.98338056
2761437500 -0.13541324 -0.97646844 -9.1878364e-006 1.1215648e-005 3.9824354e-006 2.2065296e-005 -0.097990043 -0.98333055
2761500000 -0.1357746 -0.97642648 -2.3810444e-006 4.8889996e-007 -2.2920783e-006 4.372132e-006 -0.09828908 -0.98323202
2761562500 -0.13603708 -0.9763158 2.0546831e-006 5.3291405e-006 -5.1296515e-006 3.4026457e-006 -0.098629579 -0.98328602
2761625000 -0.13640277 -0.97627187 -1.2009393e-006 -1.576783e-006 8.4567082e-006 6.2090508e-006 -0.09900713 -0.98322326
2761687500 -0.13667879 -0.97623336 1.7178206e-006 -6.3104835e-007 -7.6877529e-007 -7.6523293e-007 -0.099272743 -0.98318022
2761750000 -0.13708176 -0.97618783 5.1322222e-006 5.3387812e-006 4.2056154e-006 1.7361531e-006 -0.099603802 -0.98312974
2761812500 -0.13735186 -0.97618818 -1.0615543e-005 -1.8656719e-006 -2.1521803e-006 2.6755206e-006 -0.09994334 -0.98313379
2761875000 -0.13770041 -0.97613263 -1.2922109e-007 -1.0895993e-005 1.2325168e-005 -7.801774e-007 -0.10021096 -0.9830628
2761937500 -0.13804232 -0.97612202 -2.3912473e-006 1.14165e-005 -6.4674368e-006 9.620835e-006 -0.10052101 -0.98302782
2762000000 -0.13838282 -0.97607559 -1.1080605e-005 3.1598265e-007 -3.462937e-006 -1.2216442e-006 -0.10085884 -0.98297226
2762062500 -0.1386302 -0.97600156 -7.3842139e-006 -7.2763737e-007 8.8794368e-006 -1.0098425e-005 -0.10117409 -0.98287737
2762125000 -0.13897952 -0.9759475 1.1046443e-005 -8.2610586e-006 -1.5058275e-005 4.5308066e-006 -0.1014279 -0.98292363
2762187500 -0.13929404 -0.97586828 1.2836055e-005 -7.1673608e-006 4.6484292e-006 -3.0778006e-006 -0.10175984 -0.98284513
2762250000 -0.13961455 -0.97585326 -1.2357606e-005 -6.8765635e-006 -1.2808343e-006 -9.2136091e-008 -0.10206928 -0.98281538
2762312500 -0.14003162 -0.975815 3.390574e-006 -2.6780142e-006 -6.3061821e-006 2.9516905e-006 -0.10238231 -0.98273152
2762375000 -0.1402799 -0.97572815 -1.347245e-006 1.2496757e-007 -1.4468901e-005 -4.7169542e-006 -0.10271635 -0.98265868
2762437500 -0.14055613 -0.97568208 5.1975039e-006 2.7245242e-006 -4.2408283e-006 2.3206844e-006 -0.10304359 -0.9826858
2762500000 -0.14097829 -0.97558457 4.2362785e-006 1.7640179e-005 1.5318542e-006 -1.292189e-006 -0.10340752 -0.9826982
2762562500 -0.14130424 -0.97559166 1.0252885e-005 2.9624089e-006 -8.2422484e-006 3.4014085e-006 -0.10364084 -0.98256052
2762625000 -0.14167476 -0.97553986 -5.6719387e-007 2.4628048e-007 1.0015626e-005 -4.7039512e-006 -0.10397847 -0.98257881
2762687500 -0.14194272 -0.97539026 1.1689722e-005 -1.6910275e-006 5.9686374e-007 -3.7459645e-006 -0.10426225 -0.98252559
2762750000 -0.14233735 -0.97539812 1.2896038e-005 -3.1656687e-006 -1.2923824e-006 9.7494294e-006 -0.10463399 -0.98251009
2762812500 -0.14257436 -0.97537196 -1.1498707e-006 4.9020869e-008 -8.9568503e-006 1.6027538e-005 -0.10490536 -0.9824298
2762875000 -0.14293404 -0.97532743 7.9239845e-007 -5.5104711e-006 3.9235019e-006 -9.2794899e-006 -0.10525923 -0.98237807
2762937500 -0.1432583 -0.9751966 -2.2229844e-006 5.2987443e-006 -4.1050275e-006 -3.40821e-006 -0.10560187 -0.98236787
2763000000 -0.14358383 -0.97518784 6.8925306e-006 1.0562517e-005 -1.630336e-006 5.4390907e-006 -0.10590825 -0.98225325
2763062500 -0.14396533 -0.97513992 8.1509716e-006 4.8666079e-006 -5.7134462e-006 5.7212583e-006 -0.10614635 -0.9823032
2763125000 -0.14427882 -0.97505617 6.1149103e-006 2.6968528e-006 -5.3284748e-007 -4.5504048e-006 -0.10650235 -0.98223424
2763187500 -0.14456759 -0.97497731 2.2237805e-006 8.8520874e-006 5.6296417e-006 6.0653338e-006 -0.1068213 -0.98217618
2763250000 -0.14496852 -0.97494525 2.1316678e-006 -2.4369795e-006 4.2827887e-007 2.1194892e-006 -0.10714072 -0.98218125
2763312500 -0.14522345 -0.97492993 2.5282825e-006 1.068711e-005 -4.9963353e-007 2.748156e-006 -0.10747755 -0.98205531
2763375000 -0.14567865 -0.97482938 8.4099174e-006 -2.637817e-006 -6.0112006e-006 -1.0900743e-005 -0.10780043 -0.98198766
2763437500 -0.14592139 -0.97475094 9.3765857e-006 5.097801e-006 2.9816015e-006 -3.7036225e-006 -0.10805812 -0.98199874
2763500000 -0.14633994 -0.97475469 1.9719978e-006 -2.5670558e-006 6.0868479e-006 4.219381e-006 -0.10842049 -0.98196656
2763562500 -0.14659643 -0.97465205 -4.2734468e-006 5.0581434e-007 9.2894476e-007 -1.3382467e-005 -0.10879666 -0.98194176
2763625000 -0.14692439 -0.97460449 -1.9808419e-006 6.5386912e-006 -4.3839113e-006 -7.6367155e-007 -0.10911497 -0.98192227
2763687500 -0.14724746 -0.97454256 -4.6041141e-006 7.0507604e-006 8.5079701e-006 1.1891966e-005 -0.10943206 -0.98187482
2763750000 -0.14759697 -0.97453356 6.0369084e-006 -2.82721e-006 -1.7788447e-005 1.5692139e-006 -0.10969496 -0.98180187
2763812500 -0.14790262 -0.97444618 1.0580246e-006 6.0816883e-006 5.3137082e-006 8.6079917e-006 -0.11006059 -0.98171479
2763875000 -0.14828454 -0.97440827 5.1179782e-006 -1.174752e-006 -8.4304111e-007 3.7950078e-006 -0.11041334 -0.98165303
2763937500 -0.14857954 -0.97437906 3.0773888e-006 1.0998761e-005 -1.3290933e-005 -1.2194095e-006 -0.11070658 -0.98164368
2764000000 -0.14893673 -0.97423458 1.9696316e-005 2.1818958e-006 1.0003387e-005 3.9075221e-006 -0.11111008 -0.98161817
2764062500 -0.14931248 -0.97414416 9.164889e-006 1.1712868e-005 -6.65095e-007 2.2087463e-006 -0.11136994 -0.98156059
2764125000 -0.14952001 -0.97402447 -3.0156243e-006 4.0753121e-006 1.3506158e-005 4.3937898e-006 -0.11174016 -0.98153859
2764187500 -0.14991239 -0.97409445 3.1103373e-006 8.9220084e-006 3.6831707e-006 -2.3956311e-006 -0.11203539 -0.98149711
2764250000 -0.15026601 -0.97405553 1.138311e-005 6.8956842e-006 1.2806422e-005 -3.7176949e-006 -0.11236039 -0.98139787
2764312500 -0.15050919 -0.97396511 -8.3653376e-006 -6.6624771e-006 2.8336617e-006 2.8313539e-006 -0.11273716 -0.9814043
2764375000 -0.15085414 -0.97382778 3.9383553e-006 4.852428e-006 -6.1175615e-006 1.2768544e-005 -0.1130128 -0.98131919
2764437500 -0.15125671 -0.9738189 1.580955e-006 1.0947448e-005 1.5083774e-006 5.8624219e-006 -0.113396 -0.98127007
2764500000 -0.15156193 -0.9737426 3.6667409e-006 -7.5433691e-006 1.790184e-006 1.1073785e-006 -0.11370086 -0.98122942
2764562500 -0.15190305 -0.97367573 8.3706545e-006 1.0688605e-005 3.5323992e-006 -2.8084869e-006 -0.11401508 -0.98114353
2764625000 -0.15221313 -0.97367018 8.5197389e-006 6.4740188e-006 -3.8147191e-006 3.2001942e-006 -0.11429836 -0.9812116
2764687500 -0.15252613 -0.97358829 1.1175766e-005 7.2272637e-006 -6.9431389e-006 -8.0879772e-006 -0.11468769 -0.98110884
2764750000 -0.15284058 -0.97355032 1.4099699e-005 -5.1657298e-006 5.0404592e-006 7.3598649e-006 -0.11498283 -0.9810462
2764812500 -0.15317741 -0.97347236 2.3528398e-006 2.3130482e-007 2.7136659e-006 4.0586847e-006 -0.1153421 -0.98106527
2764875000 -0.15350001 -0.97342575 -1.2062167e-006 7.028546e-006 -1.3556609e-006 8.821562e-006 -0.11568148 -0.9809835
2764937500 -0.15385523 -0.9732818 -7.5417752e-006 -3.2721359e-006 8.2344559e-006 -3.668373e-006 -0.1160392 -0.98091424
2765000000 -0.154282 -0.97331572 -5.0059504e-007 7.0563187e-006 -1.5421551e-007 -4.7296257e-006 -0.11630084 -0.98085845
2765062500 -0.15454367 -0.97321594 3.7606032e-006 8.501832e-007 8.7817898e-006 6.1967348e-006 -0.11664011 -0.98083395
2765125000 -0.15489623 -0.9731518 -2.1829164e-006 -7.4966092e-006 -1.2544754e-005 -1.4907998e-005 -0.11696541 -0.98077977
2765187500 -0.1553321 -0.97309756 -2.4854912e-006 6.7346941e-006 8.393592e-006 -2.6825506e-007 -0.11729558 -0.980681
2765250000 -0.15560178 -0.97305954 -2.0410848e-006 -8.502745e-006 9.2396131e-006 -4.7420863e-006 -0.11759137 -0.98069572
2765312500 -0.1559695 -0.97298503 -6.0304351e-006 1.969463e-006 -1.2613173e-006 1.2928461e-005 -0.11792303 -0.98056996
2765375000 -0.15632978 -0.97290695 4.1160015e-006 1.6499216e-006 -8.7470989e-006 -6.5373761e-006 -0.1182412 -0.98049831
2765437500 -0.1566063 -0.97286445 4.242228e-006 -1.8433432e-006 -8.5343172e-006 7.7062396e-006 -0.11862662 -0.98052406
2765500000 -0.15692362 -0.97280753 1.0214941e-005 4.6752089e-006 -8.4289668e-006 3.8644021e-006 -0.11888688 -0.98047829
2765562500 -0.15721999 -0.97264457 -7.9897254e-006 1.0662781e-005 -4.9015298e-006 3.5898527e-006 -0.11930512 -0.98038
2765625000 -0.15759902 -0.97262269 1.2492343e-005 -5.5521667e-007 -3.8709832e-006 8.0823238e-006 -0.11960394 -0.98036218
2765687500 -0.15788434 -0.97257626 9.6401573e-006 1.0333761e-005 3.5469343e-006 -4.7145595e-006 -0.11992421 -0.98029792
2765750000 -0.15824981 -0.97257137 -9.320608e-007 -1.5476577e-006 4.2397887e-006 -1.2990113e-005 -0.12032345 -0.98026913
2765812500 -0.15860145 -0.97252232 -2.176859e-006 2.4988599e-006 -9.8870187e-006 -5.7418953e-007 -0.12062293 -0.98023838
2765875000 -0.15899345 -0.97238517 1.3379716e-006 -2.8258528e-006 4.874335e-006 1.0349655e-005 -0.12099023 -0.98016661
2765937500 -0.15933135 -0.97235703 1.2218991e-005 -3.3784279e-006 -7.755566e-006 6.1453125e-006 -0.12128396 -0.98015982
2766000000 -0.15970647 -0.97224039 5.8058781e-006 1.2076984e-005 -1.1921338e-006 5.4705165e-006 -0.12157833 -0.98009825
2766062500 -0.15999828 -0.97219604 1.9124545e-006 -1.0988048e-005 1.0843182e-005 9.078175e-006 -0.12195008 -0.98002535
