!Agilent Technologies,N5242A,MY47420273,A.09.90.17
!Agilent N5242A: A.09.90.17
!Date: Wednesday, November 29, 2023 14:02:16
!Correction: S11(Full 2 Port(1,4)) 
!S41(Full 2 Port(1,4)) 
!S14(Full 2 Port(1,4)) 
!S44(Full 2 Port(1,4)) 
!S2P File: Measurements: S11, S41, S14, S44:
# Hz S  RI   R 50
2000000000 0.80532551 -0.59205598 5.5252381e-006 -7.1185077e-006 -3.6694889e-006 -2.8152432e-005 0.81871611 -0.56885242
2006250000 0.80129951 -0.59741801 -1.2918907e-005 -9.228188e-006 7.3403671e-006 -4.1643302e-006 0.81499285 -0.5742389
2012500000 0.79719514 -0.60269582 4.494852e-006 2.6512612e-006 3.5585172e-006 7.0696483e-006 0.81104529 -0.57941991
2018750000 0.79317462 -0.60789222 2.4159772e-006 1.7397637e-005 -3.0040195e-005 -4.6143327e-006 0.80715054 -0.58475417
2025000000 0.78898734 -0.61323947 -1.5201229e-005 -9.2626278e-006 3.457618e-006 -9.6814993e-006 0.803334 -0.58990639
2031250000 0.78492713 -0.61839062 -1.4784012e-005 -8.8309398e-006 5.52451e-006 4.3635418e-006 0.79938692 -0.59518862
2037500000 0.780716 -0.62365603 2.3869295e-006 3.4432583e-006 6.8429877e-006 -4.0230992e-007 0.79548442 -0.60032487
2043750000 0.77644789 -0.62880653 -1.0390044e-006 3.2597945e-006 4.6244782e-006 -2.9788393e-006 0.79156756 -0.60543883
2050000000 0.77231741 -0.6339643 -6.246104e-006 9.5735295e-006 -4.3484279e-006 7.2554866e-007 0.78759193 -0.61056775
2056250000 0.76794136 -0.63893437 1.404231e-005 -1.0862662e-005 -6.8770682e-006 -3.0444495e-005 0.78360081 -0.61566693
2062500000 0.76373196 -0.64389831 -3.3649824e-006 -7.3283941e-006 5.5440178e-006 -3.2763292e-006 0.77962226 -0.6206516
2068750000 0.75937045 -0.64883882 -9.8051923e-006 -2.3094111e-005 -7.7265531e-006 5.9440331e-006 0.77552807 -0.62578183
2075000000 0.75496817 -0.65370166 3.6452489e-006 4.1935382e-006 4.8254019e-006 6.4715732e-006 0.77140087 -0.6307413
2081250000 0.75062972 -0.65851772 8.4907806e-006 1.1145913e-005 -1.1329023e-005 -6.7401315e-006 0.7673946 -0.63579458
2087500000 0.74634725 -0.6633001 -9.3461967e-006 1.336931e-005 -2.0610045e-005 9.0493613e-006 0.76317966 -0.64071172
2093750000 0.7419157 -0.66809219 5.8674277e-006 1.9675346e-005 -1.9623829e-005 -4.6873151e-006 0.75899231 -0.64568722
2100000000 0.73759127 -0.67287487 3.717586e-006 1.3392667e-005 9.6421945e-006 2.7261791e-005 0.75480407 -0.65053588
2106250000 0.73316067 -0.67759365 -7.1887021e-006 -5.3615795e-006 -3.5110435e-005 9.1856145e-006 0.75055391 -0.65546083
2112500000 0.72878176 -0.68231589 -6.5704521e-006 1.9343146e-005 1.2575359e-005 1.1156554e-006 0.74625713 -0.66022778
2118750000 0.72432011 -0.68707025 -9.5836758e-006 -4.1128155e-006 -1.6060354e-005 2.9470168e-006 0.74190915 -0.66512668
2125000000 0.71988291 -0.69181657 -8.0896734e-006 3.924788e-006 9.5361584e-006 1.7076984e-005 0.73757714 -0.66984296
2131250000 0.71545154 -0.69635767 -8.4835292e-006 6.9421294e-006 -9.0702106e-006 3.2067219e-005 0.73319036 -0.67453021
2137500000 0.7108587 -0.70103925 1.5954507e-005 -1.4347164e-005 -8.8420829e-006 -6.7688097e-006 0.72883946 -0.67923081
2143750000 0.70636988 -0.70565683 -1.1837128e-005 2.1237909e-005 -1.2320944e-005 1.355266e-005 0.72443902 -0.68389118
2150000000 0.70170879 -0.7100969 -1.0495709e-006 1.0894121e-005 8.1968201e-006 -7.1783647e-006 0.7198934 -0.68859971
2156250000 0.69704318 -0.71454012 1.9629042e-006 -1.2954633e-005 -2.7069733e-005 2.6072032e-006 0.71551311 -0.6931504
2162500000 0.69250911 -0.71906656 1.3871707e-005 -1.8203681e-006 4.1364987e-007 5.8870737e-006 0.71105576 -0.69776177
2168750000 0.6877653 -0.72344482 7.6715651e-007 8.7065782e-006 1.2340571e-005 1.0232088e-005 0.70647854 -0.70239282
2175000000 0.68301409 -0.72780246 -6.6886827e-007 1.7837559e-005 -1.0479303e-005 1.4731602e-005 0.70186228 -0.70695204
2181250000 0.6783933 -0.73199427 1.1567018e-005 1.342358e-005 -2.216915e-005 -2.8494956e-006 0.69721222 -0.71146137
2187500000 0.6736691 -0.73640418 7.4959689e-006 3.0522312e-006 -8.8870665e-006 1.7776551e-005 0.69265252 -0.71601945
2193750000 0.66895074 -0.7406317 -1.184238e-005 7.8428593e-006 -4.0080945e-006 -8.7464987e-006 0.68793422 -0.72055262
2200000000 0.66418177 -0.74489701 5.4826019e-006 5.4987612e-007 -2.45162e-006 3.4360139e-006 0.68317062 -0.72487324
2206250000 0.65946382 -0.74905503 2.8171182e-006 1.8052108e-007 -3.456167e-006 -4.5111929e-006 0.67844737 -0.72931916
2212500000 0.65474099 -0.75328404 1.3965443e-005 9.906611e-006 1.0158364e-005 -2.2883289e-005 0.67357284 -0.73371285
2218750000 0.64991289 -0.75754511 -1.1393195e-007 4.2462761e-006 1.4277011e-005 -9.1985821e-006 0.66876775 -0.73817509
2225000000 0.64512342 -0.76167256 2.7278707e-006 3.1810016e-006 -6.1471546e-006 1.0462701e-005 0.66394478 -0.74247986
2231250000 0.64024204 -0.76589251 1.240606e-005 1.0370523e-005 3.025398e-006 1.1233643e-005 0.65906405 -0.74675465
2237500000 0.63523167 -0.77002901 7.3657179e-006 1.1233168e-006 1.5305144e-006 8.6750761e-006 0.65416169 -0.75106418
2243750000 0.63037163 -0.77421367 9.7237362e-006 2.1846185e-005 -1.0084721e-006 2.4736478e-006 0.6493454 -0.75533515
2250000000 0.62526155 -0.77820653 -4.0404775e-006 4.581655e-006 -6.8948038e-006 -7.1709756e-006 0.64434016 -0.75956124
2256250000 0.6202094 -0.78233188 -3.7832954e-006 -5.779144e-006 1.8824741e-005 1.0992083e-005 0.63944423 -0.76363057
2262500000 0.61500978 -0.78632152 1.1386088e-006 -8.6380824e-006 -4.6859236e-006 -9.1646916e-006 0.63441765 -0.76788908
2268750000 0.60989892 -0.79027498 -4.7389071e-006 2.1986075e-006 -4.6619984e-006 4.3685673e-006 0.62927228 -0.77206725
2275000000 0.60475618 -0.79418921 5.4911261e-006 -1.2218262e-005 1.1441033e-005 6.3881412e-006 0.62425655 -0.77612263
2281250000 0.59949452 -0.79824305 1.3582021e-005 -4.6099362e-006 -1.053584e-005 2.5488339e-006 0.61911738 -0.78024596
2287500000 0.59424537 -0.80212069 -9.4325615e-006 1.8360683e-005 -1.6442771e-005 -5.1842894e-006 0.61396497 -0.78436899
2293750000 0.5889681 -0.80599463 -8.5817746e-006 2.5472052e-006 -3.320449e-006 -6.3013658e-006 0.60867822 -0.78843641
2300000000 0.58361584 -0.80984974 -5.4571836e-007 2.4783017e-006 8.9293198e-006 -6.218906e-006 0.60352701 -0.79240429
2306250000 0.57831216 -0.81368887 -6.0546677e-006 1.3504615e-005 -1.2290724e-005 -7.836129e-006 0.59816915 -0.79636896
2312500000 0.57285869 -0.817505 1.292495e-005 -1.1290275e-005 8.3735551e-007 -1.8428123e-005 0.59288794 -0.80020243
2318750000 0.56748086 -0.82136589 1.7989863e-005 -1.0460836e-005 1.164794e-005 -1.0269481e-005 0.58758968 -0.80416912
2325000000 0.5619927 -0.82511801 -9.82039e-006 -2.1062331e-007 -1.2078095e-005 -5.6192143e-006 0.582259 -0.80797088
2331250000 0.55632359 -0.82877564 3.1998059e-006 6.0941061e-006 -4.6707901e-006 -1.4535905e-005 0.57689643 -0.81173384
2337500000 0.55070144 -0.83255482 -9.3825947e-006 7.8818739e-006 -1.3280633e-006 -2.0765354e-005 0.57149214 -0.81560832
2343750000 0.54508221 -0.83624619 -4.1627504e-006 -8.3917012e-006 1.131364e-005 2.9898124e-006 0.56608611 -0.81946719
2350000000 0.53933287 -0.83980107 1.7045064e-005 -8.1048313e-007 -9.2116295e-007 -4.6893229e-006 0.5605551 -0.82328713
2356250000 0.53357279 -0.84355354 -1.4196677e-006 -2.1608344e-006 -6.663171e-006 -1.234272e-006 0.55503082 -0.82703954
2362500000 0.52777088 -0.84705442 7.4655122e-006 -3.9646516e-006 4.5175966e-006 2.2815357e-005 0.5494985 -0.83078241
2368750000 0.52200645 -0.85065824 -4.650357e-007 -1.0094723e-005 -2.0042969e-005 -1.7890114e-005 0.5438655 -0.83449638
2375000000 0.51610887 -0.85423845 1.6067327e-006 3.5667822e-006 -1.080679e-005 -1.6417658e-005 0.53815019 -0.83807558
2381250000 0.51015162 -0.85766315 1.3295074e-005 9.7191969e-006 -6.6489988e-006 3.3175359e-006 0.5324499 -0.84179384
2387500000 0.50426769 -0.86127931 1.7790071e-005 -1.1324913e-005 -2.576816e-005 -1.5180352e-005 0.52662796 -0.84537327
2393750000 0.4981674 -0.86467236 2.9549467e-006 2.0080983e-005 1.718963e-005 7.0076894e-006 0.52084261 -0.84886521
2400000000 0.49210101 -0.86806065 -5.0652288e-006 -9.7585307e-006 3.1345678e-006 1.2982616e-005 0.51498777 -0.85238636
2406250000 0.48602888 -0.87141871 -2.0975749e-006 6.704478e-006 8.6427845e-006 1.1642845e-005 0.5090819 -0.85586214
2412500000 0.47979343 -0.87478983 -3.2469882e-006 1.7055612e-005 5.2163859e-006 -2.1931148e-005 0.50321007 -0.85930312
2418750000 0.47359192 -0.87813705 1.9587369e-006 -6.203074e-006 5.4108505e-006 -1.2531951e-005 0.49730441 -0.86277467
2425000000 0.46724841 -0.88139141 1.0511587e-005 9.6300137e-006 1.2634639e-005 1.3998866e-005 0.49127123 -0.86617273
2431250000 0.4609288 -0.88465977 -4.9028858e-006 9.0922094e-006 -5.3073836e-006 8.8638008e-006 0.48523355 -0.86950946
2437500000 0.45461589 -0.88786608 -6.1381274e-006 5.3652107e-006 8.3009036e-006 -1.2412873e-005 0.47917968 -0.87290853
2443750000 0.44816756 -0.8910535 -4.1591729e-006 3.7287859e-006 6.8841032e-006 1.3009019e-005 0.47299728 -0.87633139
2450000000 0.44172928 -0.8941735 -2.035967e-007 -3.8170333e-006 6.2124691e-006 1.2729779e-006 0.46684361 -0.87966311
2456250000 0.43518633 -0.89727139 -1.7902745e-005 -4.3833347e-006 -1.1991249e-005 1.1283641e-005 0.46060139 -0.88295043
2462500000 0.42865926 -0.90034211 -1.197422e-005 4.9581886e-006 8.8843608e-006 1.6795248e-006 0.45418647 -0.88636404
2468750000 0.42199177 -0.90334761 -5.1864577e-006 2.3967377e-006 2.42742e-006 9.6186941e-006 0.44785386 -0.88963544
2475000000 0.41544223 -0.90651053 -1.984662e-006 -1.427013e-006 -9.4548095e-006 -1.0242468e-005 0.44130841 -0.89278817
2481250000 0.40868199 -0.90956306 -4.3830833e-006 -5.050274e-006 -5.8799146e-006 -8.3739945e-007 0.43475369 -0.89606005
2487500000 0.4018141 -0.91269052 -3.7193297e-006 -7.1454733e-006 -5.3547019e-006 -2.3030484e-006 0.42808294 -0.89924592
2493750000 0.3949222 -0.91551822 2.6908729e-006 -8.3057785e-006 -1.6325282e-006 -4.2460379e-006 0.42130691 -0.90239388
2500000000 0.38806769 -0.91857934 6.4857306e-007 -3.1021659e-006 1.6657146e-005 2.0983958e-005 0.41453421 -0.90541708
2506250000 0.38091242 -0.92152023 -1.3416866e-006 1.6647378e-005 -7.0773663e-006 -3.4784364e-006 0.40772998 -0.90851265
2512500000 0.37373063 -0.92440873 9.3658773e-006 9.9295903e-006 7.2343719e-006 9.8526311e-007 0.40076023 -0.91159254
2518750000 0.36650717 -0.92718953 5.0016206e-006 1.4013836e-005 1.4604961e-005 3.6478416e-006 0.39379668 -0.91459799
2525000000 0.35915264 -0.93002456 1.1504102e-005 7.5118514e-006 -1.4740876e-005 8.2951492e-006 0.38667959 -0.91764611
2531250000 0.35178459 -0.93272102 8.3947907e-006 1.9482392e-005 1.0315019e-005 4.4829262e-006 0.37943548 -0.92059207
2537500000 0.34421703 -0.93539679 -3.2114995e-006 -1.3334668e-005 9.7205593e-006 1.075195e-005 0.37217101 -0.92357922
2543750000 0.33666354 -0.93810856 3.261885e-006 1.1764448e-005 1.4976142e-005 -1.0571858e-005 0.36468318 -0.92658836
2550000000 0.32901949 -0.9407056 -4.8811653e-006 1.0153969e-005 6.9680409e-006 4.8858278e-006 0.35716364 -0.92954707
2556250000 0.3212676 -0.9433881 -5.6704484e-006 -2.131125e-006 4.7483272e-006 5.5125457e-007 0.34942001 -0.93239605
2562500000 0.31333956 -0.94595194 5.7736866e-006 2.0534009e-005 -1.0172358e-006 1.7396105e-005 0.34166101 -0.93528491
2568750000 0.30537352 -0.9485054 -5.4839907e-006 -6.5208637e-006 -7.6209949e-006 -1.3317597e-005 0.333754 -0.93807042
2575000000 0.29721501 -0.95099354 2.2784102e-006 -6.3682796e-006 -9.4911957e-006 -1.4316757e-006 0.32562804 -0.94095194
2581250000 0.28896278 -0.95352703 6.6673565e-006 -9.3467515e-006 -5.0730155e-006 -1.435377e-005 0.31733754 -0.94378406
2587500000 0.28053606 -0.95608234 -1.2922289e-005 6.6658043e-007 -4.3902619e-006 -1.1246769e-005 0.308947 -0.94644594
2593750000 0.27193904 -0.9585802 -8.1632916e-006 5.881509e-007 -4.2081851e-006 -1.1923344e-005 0.30040312 -0.94910336
2600000000 0.26311454 -0.96109366 -5.9817673e-008 -9.5820023e-006 1.5016076e-005 6.1126275e-006 0.29165593 -0.95175177
2606250000 0.25402552 -0.96345627 -1.2341133e-006 1.0316014e-005 -1.4578713e-005 1.0457155e-005 0.28270981 -0.95437968
2612500000 0.2446958 -0.96591467 3.9747324e-006 1.9652541e-006 3.517313e-006 6.9954895e-006 0.27349129 -0.9570083
2618750000 0.23516718 -0.96827745 -6.2312097e-006 -7.0225219e-006 -4.7360213e-006 -5.971363e-006 0.26411757 -0.95965844
2625000000 0.22544193 -0.97053701 -2.1927572e-006 4.1517578e-006 5.7782868e-006 -1.2151514e-007 0.25452113 -0.96216244
2631250000 0.21531118 -0.97269672 4.2497613e-006 5.3009117e-006 1.5111408e-005 -1.6267874e-006 0.24459153 -0.96466571
2637500000 0.20504183 -0.97480297 3.6280278e-007 -3.5381556e-006 -3.7998752e-006 -7.721731e-006 0.2343844 -0.96709836
2643750000 0.19439965 -0.97688091 5.3922204e-006 4.6080877e-006 7.7106924e-006 -4.524868e-006 0.22391491 -0.96959448
2650000000 0.18334737 -0.97893423 -8.3445057e-006 -2.0685573e-006 -2.8955858e-006 -9.0113126e-006 0.21300627 -0.9719336
2656250000 0.17203975 -0.98093909 -3.681243e-006 -7.4082504e-007 5.3835092e-006 1.4681716e-005 0.20185912 -0.97421539
2662500000 0.16029339 -0.98273504 1.9911444e-005 -6.8648701e-006 5.5685018e-006 -6.4800856e-006 0.19019294 -0.97644967
2668750000 0.14811072 -0.98465472 -1.7044e-005 -1.6507229e-005 6.8252175e-006 -1.5446278e-005 0.1780692 -0.97859633
2675000000 0.13534655 -0.98628533 -6.8618506e-006 -2.7358085e-006 -1.9779375e-006 -1.0091811e-005 0.16546604 -0.98069155
2681250000 0.1220339 -0.9879986 -2.0718687e-006 7.1824661e-007 -9.5320675e-006 -6.7159908e-006 0.15241577 -0.9826892
2687500000 0.10813601 -0.98933935 -1.7361563e-005 2.8797799e-006 -1.3311787e-005 -2.7333556e-007 0.13863261 -0.98445857
2693750000 0.093494393 -0.99072063 -8.0681511e-006 -5.9524391e-006 -1.9214986e-005 -3.0947165e-006 0.12432575 -0.9863205
2700000000 0.078122832 -0.99188334 -1.2535561e-005 -8.1318967e-007 -6.6547059e-006 6.0782518e-006 0.10927974 -0.98790407
2706250000 0.061833192 -0.99286419 -1.9043153e-005 7.8528626e-007 -2.1384154e-005 2.0612072e-006 0.093219571 -0.9892866
2712500000 0.044517394 -0.99358737 -1.1778525e-005 1.2323982e-005 -2.0704258e-005 1.3891716e-006 0.076364525 -0.99050575
2718750000 0.026207421 -0.99388808 -3.1438864e-005 -5.3976523e-006 -1.7821289e-005 8.5432357e-006 0.058326438 -0.99149394
2725000000 0.0065356521 -0.99392915 -2.6988377e-005 1.1774054e-005 -3.3180633e-005 8.8074612e-006 0.039043989 -0.99213088
2731250000 -0.014553036 -0.99344659 -4.4192526e-005 -5.437234e-006 -4.618851e-005 -1.0504481e-006 0.018392116 -0.99236083
2737500000 -0.037331421 -0.99235463 -4.338611e-005 2.0906339e-006 -5.2341078e-005 1.5528567e-006 -0.0039937226 -0.99215686
2743750000 -0.062029544 -0.99057162 -7.3949821e-005 9.2266719e-006 -6.6068584e-005 1.5386009e-005 -0.028136613 -0.9912914
2750000000 -0.088994287 -0.98785025 -7.9984304e-005 1.1020018e-005 -0.0001195345 1.8656805e-005 -0.054579448 -0.98950219
2756250000 -0.11861973 -0.98393863 -0.00013332957 1.9421812e-005 -0.00013378929 2.075731e-005 -0.083655953 -0.98674589
2762500000 -0.15142074 -0.97847849 -0.00017195378 5.2124611e-005 -0.00016398892 4.1020485e-005 -0.11581908 -0.98260754
2768750000 -0.1880904 -0.97094637 -0.00023171808 5.8174639e-005 -0.00024146818 6.3276042e-005 -0.15179369 -0.97659123
2775000000 -0.22938463 -0.96052468 -0.00034516226 0.00010109979 -0.00034241038 0.00010460823 -0.1924046 -0.96805358
2781250000 -0.27639121 -0.94616717 -0.00050320016 0.00018758899 -0.00049830711 0.00019242255 -0.23859234 -0.95593512
2787500000 -0.33034134 -0.92618483 -0.00076210417 0.00034764584 -0.00077007822 0.00034800824 -0.29181951 -0.93870312
2793750000 -0.39305234 -0.89787287 -0.0011936586 0.00065909064 -0.0011811028 0.00065587572 -0.3538706 -0.91387278
2800000000 -0.46652639 -0.85687786 -0.0019401906 0.0013308442 -0.0019411212 0.0013308385 -0.42697993 -0.87734807
2806250000 -0.55316222 -0.7957387 -0.0032320232 0.0028739283 -0.0032200804 0.0028781325 -0.51392722 -0.82197028
2812500000 -0.65482783 -0.70067096 -0.0054679103 0.0068129371 -0.0054580593 0.0068229917 -0.61735648 -0.73457426
2818750000 -0.76825607 -0.54411131 -0.0085592084 0.018018091 -0.0085270545 0.018058809 -0.73601079 -0.58851111
2825000000 -0.86461186 -0.26758555 -0.0042756088 0.054305248 -0.0041525941 0.054317806 -0.84594089 -0.32463238
2831250000 -0.75642169 0.22783943 0.10859969 0.15640429 0.10891056 0.15616411 -0.77200395 0.16794889
2837500000 -0.023794997 0.26385748 0.51135963 -0.31456393 0.51079494 -0.31553614 -0.047429461 0.25582373
2843750000 -0.048611835 0.020367645 -0.40635464 -0.62303704 -0.40775448 -0.62229806 -0.056611925 0.0047763516
2850000000 -0.0084818481 -0.033072848 -0.74560148 0.20282558 -0.74525338 0.20434821 -0.010888359 -0.040251829
2856250000 0.022782227 -0.019714827 -0.11072502 0.77119362 -0.10920406 0.77134997 0.022529144 -0.032817885
2862500000 0.033006966 -0.038892493 0.65895194 0.39878622 0.6598115 0.39748034 0.034739513 -0.045729965
2868750000 0.030368408 0.039698273 0.54014271 -0.50125831 0.53915018 -0.50242341 0.043687537 0.011198813
2875000000 -0.028223095 0.38750803 -0.40740734 -0.35155457 -0.4081575 -0.3507283 -0.074560389 0.35572287
2881250000 0.70575273 0.43334523 -0.1193364 0.094970778 -0.11911732 0.095171034 0.6794979 0.4510093
2887500000 0.9173497 0.029781753 -0.012614572 0.043002144 -0.012523922 0.043031868 0.9086616 0.0467024
2893750000 0.91789061 -0.23924649 0.00087397662 0.01674041 0.00091282238 0.016737962 0.91528851 -0.2241227
2900000000 0.87061346 -0.41355821 0.0019893372 0.0071432567 0.0019966066 0.0071363063 0.87138677 -0.39932263
2906250000 0.81412101 -0.53244215 0.0015439837 0.0033733477 0.0015418533 0.0033606039 0.8175289 -0.51845956
2912500000 0.75909889 -0.61719686 0.0010577855 0.0017237791 0.0010368213 0.0017122177 0.76474416 -0.60360199
2918750000 0.70885813 -0.68016517 0.00070869655 0.00093369721 0.0007070431 0.00094775192 0.71619362 -0.66681284
2925000000 0.66338217 -0.72833323 0.00047161695 0.00054235145 0.00046611769 0.00051810103 0.67225003 -0.71518332
2931250000 0.62269294 -0.76611364 0.00033868631 0.00032355697 0.00032889875 0.00031474029 0.63284433 -0.75330698
2937500000 0.58603495 -0.79644519 0.00023533838 0.00019978275 0.00023227533 0.00021406024 0.59732014 -0.78399378
2943750000 0.55297428 -0.82119459 0.00017012779 0.00012669398 0.00015172137 0.00013322625 0.56526458 -0.80907381
2950000000 0.52300984 -0.84181046 0.00011886592 8.9842455e-005 0.00012053859 9.8121687e-005 0.53610718 -0.82995135
2956250000 0.49561596 -0.85914844 8.2620907e-005 5.2686893e-005 9.1275673e-005 4.9809107e-005 0.50952476 -0.84756744
2962500000 0.47051209 -0.87400377 6.5574342e-005 4.7024736e-005 6.2993873e-005 3.0617921e-005 0.48513895 -0.8626014
2968750000 0.44729185 -0.88674486 4.3439697e-005 3.5955989e-005 4.7223413e-005 2.214316e-005 0.46253788 -0.87554258
2975000000 0.42576972 -0.89785403 2.7441527e-005 1.2679516e-005 3.101246e-005 2.1085418e-005 0.44161943 -0.88687682
2981250000 0.40570602 -0.90749007 3.4113891e-005 2.165797e-005 3.3113978e-005 6.015985e-006 0.42222112 -0.89675856
2987500000 0.38695782 -0.91602743 2.6887956e-005 1.7884389e-005 2.4058154e-005 9.8803548e-006 0.40386164 -0.90557313
2993750000 0.36929545 -0.92366564 2.7107455e-005 1.7234602e-006 1.5996824e-005 -2.8541967e-006 0.38667637 -0.91342241
3000000000 0.35263345 -0.93036634 1.7023911e-005 1.0910933e-005 1.430565e-005 5.2510209e-006 0.37042344 -0.9204753
3006250000 0.33686763 -0.93646353 1.6505133e-005 7.4230902e-006 3.9735119e-006 1.1677542e-006 0.35507879 -0.92676878
3012500000 0.32185569 -0.94190866 8.8831375e-006 5.6377104e-008 1.4930178e-005 -4.3042837e-006 0.34043595 -0.93250102
3018750000 0.30757886 -0.94687223 1.2823652e-005 -2.5726893e-006 8.438119e-007 3.5819719e-006 0.32641196 -0.93770003
3025000000 0.29398787 -0.95136935 1.2089369e-005 -5.9175563e-006 1.0851151e-005 6.6083571e-006 0.31301823 -0.94234836
3031250000 0.28089043 -0.95546436 7.9020028e-006 4.2448628e-006 2.8137672e-005 8.116901e-006 0.30018806 -0.94675428
3037500000 0.26828837 -0.95923871 2.2846955e-006 -6.0153216e-006 -1.0657878e-005 1.2119247e-005 0.28783688 -0.95071447
